T12A4 000:005.448   SEGGER J-Link V7.94 Log File
T12A4 000:005.572   DLL Compiled: Nov 29 2023 13:35:28
T12A4 000:005.579   Logging started @ 2024-04-12 17:37
T12A4 000:005.584   Process: C:\Keil_v5\UV4\UV4.exe
T12A4 000:005.594 - 5.590ms
T12A4 000:005.604 JLINK_SetWarnOutHandler(...)
T12A4 000:005.610 - 0.007ms
T12A4 000:005.616 JLINK_OpenEx(...)
T12A4 000:006.941   Firmware: J-Link MCU-Link V1 compiled May  2 2023 11:55:02
T12A4 000:007.325   Firmware: J-Link MCU-Link V1 compiled May  2 2023 11:55:02
T12A4 000:007.488   Decompressing FW timestamp took 130 us
T12A4 000:008.725   Hardware: V1.00
T12A4 000:008.741   S/N: 1069185316
T12A4 000:008.749   OEM: SEGGER
T12A4 000:008.763   Feature(s): None
T12A4 000:009.213   Bootloader: (Could not read)
T12A4 000:009.487   USB speed mode: High speed (480 MBit/s)
T12A4 000:009.754   TELNET listener socket opened on port 19021
T12A4 000:009.958   WEBSRV WEBSRV_Init(): Starting webserver thread(s)
T12A4 000:010.236   WEBSRV Webserver running on local port 19080
T12A4 000:010.353   Looking for J-Link GUI Server exe at: C:\Keil_v5\ARM\Segger\JLinkGUIServer.exe
T12A4 000:010.486   Looking for J-Link GUI Server exe at: C:\Program Files\SEGGER\JLink\JLinkGUIServer.exe
T12A4 000:010.539   Forking J-Link GUI Server: C:\Program Files\SEGGER\JLink\JLinkGUIServer.exe
T12A4 000:118.180   J-Link GUI Server info: "J-Link GUI server V7.94b "
T12A4 000:147.511 - 141.874ms returns "O.K."
T12A4 000:147.549 JLINK_GetEmuCaps()
T12A4 000:147.561 - 0.009ms returns 0xB8EA5A33
T12A4 000:147.572 JLINK_TIF_GetAvailable(...)
T12A4 000:147.725 - 0.153ms
T12A4 000:147.749 JLINK_SetErrorOutHandler(...)
T12A4 000:147.757 - 0.007ms
T12A4 000:147.810 JLINK_ExecCommand("ProjectFile = "C:\Users\emiel\Downloads\SDK_2_14_2_FRDM-MCXA153\han_ese_frdm_mcxa153_23-3-2024\frdm-mcxa153\projects\general_examples\getting_started\mdk\JLinkSettings.ini"", ...). 
T12A4 000:160.344   Ref file found at: C:\Keil_v5\ARM\Segger\JLinkDevices.ref
T12A4 000:160.455   REF file references invalid XML file: D:\SEGGER\JLink\JLinkDevices.xml
T12A4 000:161.461 - 13.653ms returns 0x00
T12A4 000:164.138 JLINK_ExecCommand("Device = MCXA153VLH", ...). 
T12A4 000:164.911   Flash bank @ 0x00000000: SFL: Parsing sectorization info from ELF file
T12A4 000:164.925     FlashDevice.SectorInfo[0]: .SectorSize = 0x00002000, .SectorStartAddr = 0x00000000
T12A4 000:164.933   FlashBank @0x00000000: Sectorization info from SFL ELF file ignored because sectorization override from DLL / XML file is active.
T12A4 000:166.785   Device "MCXA153" selected.
T12A4 000:167.350 - 3.182ms returns 0x00
T12A4 000:167.364 JLINK_ExecCommand("DisableConnectionTimeout", ...). 
T12A4 000:167.374 - 0.001ms returns 0x01
T12A4 000:167.381 JLINK_GetHardwareVersion()
T12A4 000:167.387 - 0.005ms returns 10000
T12A4 000:167.397 JLINK_GetDLLVersion()
T12A4 000:167.402 - 0.008ms returns 79400
T12A4 000:167.410 JLINK_GetOEMString(...)
T12A4 000:167.417 JLINK_GetFirmwareString(...)
T12A4 000:167.423 - 0.005ms
T12A4 000:172.545 JLINK_GetDLLVersion()
T12A4 000:172.566 - 0.020ms returns 79400
T12A4 000:172.573 JLINK_GetCompileDateTime()
T12A4 000:172.579 - 0.005ms
T12A4 000:174.023 JLINK_GetFirmwareString(...)
T12A4 000:174.039 - 0.016ms
T12A4 000:175.507 JLINK_GetHardwareVersion()
T12A4 000:175.522 - 0.015ms returns 10000
T12A4 000:177.344 JLINK_GetSN()
T12A4 000:177.363 - 0.018ms returns 1069185316
T12A4 000:178.843 JLINK_GetOEMString(...)
T12A4 000:180.304 JLINK_TIF_Select(JLINKARM_TIF_SWD)
T12A4 000:180.788 - 0.484ms returns 0x00
T12A4 000:180.808 JLINK_HasError()
T12A4 000:180.837 JLINK_SetSpeed(50000)
T12A4 000:180.908 - 0.073ms
T12A4 000:180.928 JLINK_GetId()
T12A4 000:187.568   InitTarget() start
T12A4 000:187.602    J-Link Script File: Executing InitTarget()
T12A4 000:189.360   ******************************************************
T12A4 000:191.210   J-Link script: MCX Cortex-M33 core J-Link script
T12A4 000:192.927   ******************************************************
T12A4 000:195.934   *** ConfigDebugMailbox start
T12A4 000:197.814   AP ID:0x002A0000
T12A4 000:200.503   RESYNC_REQ + CHIP_RESET_REQ:0x00000000
T12A4 000:202.672   Start DM-AP:0x00000000
T12A4 000:204.826   DEBUG_SESSION_REQ:0x00000000
T12A4 000:206.492   *** ConfigDebugMailbox end
T12A4 000:208.247   InitTarget() end - Took 18.9ms
T12A4 002:843.221   Found SW-DP with ID 0x6BA02477
T12A4 002:847.893   DPIDR: 0x6BA02477
T12A4 002:849.579   CoreSight SoC-400 or earlier
T12A4 002:851.197   AP map detection skipped. Manually configured AP map found.
T12A4 002:852.673   AP[0]: AHB-AP (IDR: Not set)
T12A4 002:854.923   AP[0]: Core found
T12A4 002:857.314   AP[0]: AHB-AP ROM base: 0xE00FE000
T12A4 002:859.098   CPUID register: 0x411FD210. Implementer code: 0x41 (ARM)
T12A4 002:860.786   Feature set: Mainline
T12A4 002:862.752   Cache: No cache
T12A4 002:864.413   Found Cortex-M33 r1p0, Little endian.
T12A4 002:864.714   -- Max. mem block: 0x0003DE80
T12A4 002:865.262   CPU_ReadMem(4 bytes @ 0xE000EDF0)
T12A4 002:865.537   CPU_WriteMem(4 bytes @ 0xE000EDF0)
T12A4 002:865.855   CPU_ReadMem(4 bytes @ 0xE0002000)
T12A4 002:867.821   FPUnit: 4 code (BP) slots and 0 literal slots
T12A4 002:867.839   CPU_ReadMem(4 bytes @ 0xE000EDFC)
T12A4 002:868.096   CPU_WriteMem(4 bytes @ 0xE000EDFC)
T12A4 002:868.372   CPU_ReadMem(4 bytes @ 0xE0001000)
T12A4 002:868.641   CPU_ReadMem(4 bytes @ 0xE0001000)
T12A4 002:868.908   CPU_ReadMem(4 bytes @ 0xE0001028)
T12A4 002:869.171   CPU_ReadMem(4 bytes @ 0xE0001038)
T12A4 002:869.434   CPU_WriteMem(4 bytes @ 0xE0001000)
T12A4 002:869.700   CPU_ReadMem(4 bytes @ 0xE000ED88)
T12A4 002:869.976   CPU_WriteMem(4 bytes @ 0xE000ED88)
T12A4 002:870.246   CPU_ReadMem(4 bytes @ 0xE000ED88)
T12A4 002:870.492   CPU_WriteMem(4 bytes @ 0xE000ED88)
T12A4 002:870.760   CPU_ReadMem(4 bytes @ 0xE000EFB8)
T12A4 002:873.355   Security extension: not implemented
T12A4 002:874.926   CoreSight components:
T12A4 002:876.835   ROMTbl[0] @ E00FE000
T12A4 002:876.863   CPU_ReadMem(64 bytes @ 0xE00FE000)
T12A4 002:877.418   CPU_ReadMem(32 bytes @ 0xE00FFFE0)
T12A4 002:879.652   [0][0]: E00FF000 CID B105100D PID 000BB4C9 ROM Table
T12A4 002:881.101   ROMTbl[1] @ E00FF000
T12A4 002:881.118   CPU_ReadMem(64 bytes @ 0xE00FF000)
T12A4 002:881.670   CPU_ReadMem(32 bytes @ 0xE000EFE0)
T12A4 002:882.104   CPU_ReadMem(4 bytes @ 0xE000EFBC)
T12A4 002:882.362   CPU_ReadMem(4 bytes @ 0xE000EFCC)
T12A4 002:884.241   [1][0]: E000E000 CID B105900D PID 000BBD21 DEVARCH 47702A04 DEVTYPE 00 Cortex-M33
T12A4 002:884.265   CPU_ReadMem(32 bytes @ 0xE0001FE0)
T12A4 002:884.657   CPU_ReadMem(4 bytes @ 0xE0001FBC)
T12A4 002:884.916   CPU_ReadMem(4 bytes @ 0xE0001FCC)
T12A4 002:886.746   [1][1]: E0001000 CID B105900D PID 000BBD21 DEVARCH 47701A02 DEVTYPE 00 DWT
T12A4 002:886.763   CPU_ReadMem(32 bytes @ 0xE0002FE0)
T12A4 002:887.156   CPU_ReadMem(4 bytes @ 0xE0002FBC)
T12A4 002:887.419   CPU_ReadMem(4 bytes @ 0xE0002FCC)
T12A4 002:889.508   [1][2]: E0002000 CID B105900D PID 000BBD21 DEVARCH 47701A03 DEVTYPE 00 FPB
T12A4 002:889.528   CPU_ReadMem(32 bytes @ 0xE0000FE0)
T12A4 002:889.930   CPU_ReadMem(4 bytes @ 0xE0000FBC)
T12A4 002:890.209   CPU_ReadMem(4 bytes @ 0xE0000FCC)
T12A4 002:892.280   [1][3]: E0000000 CID B105900D PID 000BBD21 DEVARCH 47701A01 DEVTYPE 43 ITM
T12A4 002:892.300   CPU_ReadMem(32 bytes @ 0xE0040FE0)
T12A4 002:892.694   CPU_ReadMem(4 bytes @ 0xE0040FBC)
T12A4 002:892.985   CPU_ReadMem(4 bytes @ 0xE0040FCC)
T12A4 002:895.038   [0][1]: E0040000 CID B105900D PID 000BBD21 DEVARCH 00000000 DEVTYPE 11 TPIU
T12A4 002:895.271 - 2714.342ms returns 0x6BA02477
T12A4 002:895.296 JLINK_GetDLLVersion()
T12A4 002:895.304 - 0.007ms returns 79400
T12A4 002:895.314 JLINK_CORE_GetFound()
T12A4 002:895.322 - 0.007ms returns 0xE0200FF
T12A4 002:895.333 JLINK_GetDebugInfo(0x100 = JLINKARM_ROM_TABLE_ADDR_INDEX)
T12A4 002:895.340   Value=0xE00FE000
T12A4 002:895.350 - 0.018ms returns 0
T12A4 002:897.019 JLINK_GetDebugInfo(0x100 = JLINKARM_ROM_TABLE_ADDR_INDEX)
T12A4 002:897.031   Value=0xE00FE000
T12A4 002:897.040 - 0.021ms returns 0
T12A4 002:897.050 JLINK_GetDebugInfo(0x101 = JLINKARM_DEBUG_INFO_ETM_ADDR_INDEX)
T12A4 002:897.057   Value=0x00000000
T12A4 002:897.065 - 0.015ms returns 0
T12A4 002:897.083 JLINK_ReadMemEx(0xE0041FF0, 0x10 Bytes, Flags = 0x02000004)
T12A4 002:897.114   CPU_ReadMem(16 bytes @ 0xE0041FF0)
T12A4 002:897.439   Data:  00 00 00 00 00 00 00 00 00 00 00 00 00 00 00 00
T12A4 002:897.458 - 0.374ms returns 16 (0x10)
T12A4 002:897.469 JLINK_GetDebugInfo(0x102 = JLINKARM_DEBUG_INFO_MTB_ADDR_INDEX)
T12A4 002:897.476   Value=0x00000000
T12A4 002:897.486 - 0.017ms returns 0
T12A4 002:897.495 JLINK_GetDebugInfo(0x103 = JLINKARM_DEBUG_INFO_TPIU_ADDR_INDEX)
T12A4 002:897.502   Value=0xE0040000
T12A4 002:897.512 - 0.017ms returns 0
T12A4 002:897.520 JLINK_GetDebugInfo(0x104 = JLINKARM_DEBUG_INFO_ITM_ADDR_INDEX)
T12A4 002:897.526   Value=0xE0000000
T12A4 002:897.536 - 0.016ms returns 0
T12A4 002:897.544 JLINK_GetDebugInfo(0x105 = JLINKARM_DEBUG_INFO_DWT_ADDR_INDEX)
T12A4 002:897.551   Value=0xE0001000
T12A4 002:897.561 - 0.016ms returns 0
T12A4 002:897.569 JLINK_GetDebugInfo(0x106 = JLINKARM_DEBUG_INFO_FPB_ADDR_INDEX)
T12A4 002:897.576   Value=0xE0002000
T12A4 002:897.585 - 0.016ms returns 0
T12A4 002:897.593 JLINK_GetDebugInfo(0x107 = JLINKARM_DEBUG_INFO_NVIC_ADDR_INDEX)
T12A4 002:897.600   Value=0xE000E000
T12A4 002:897.610 - 0.016ms returns 0
T12A4 002:897.618 JLINK_GetDebugInfo(0x10C = JLINKARM_DEBUG_INFO_DBG_ADDR_INDEX)
T12A4 002:897.625   Value=0xE000EDF0
T12A4 002:897.634 - 0.016ms returns 0
T12A4 002:897.648 JLINK_GetDebugInfo(0x01 = Unknown)
T12A4 002:897.656   Value=0x00000001
T12A4 002:897.665 - 0.023ms returns 0
T12A4 002:897.675 JLINK_ReadMemU32(0xE000ED00, 0x1 Items)
T12A4 002:897.710   CPU_ReadMem(4 bytes @ 0xE000ED00)
T12A4 002:897.973   Data:  10 D2 1F 41
T12A4 002:897.990   Debug reg: CPUID
T12A4 002:898.001 - 0.326ms returns 1 (0x1)
T12A4 002:898.011 JLINK_GetDebugInfo(0x10F = JLINKARM_DEBUG_INFO_HAS_CORTEX_M_SECURITY_EXT_INDEX)
T12A4 002:898.019   Value=0x00000000
T12A4 002:898.028 - 0.017ms returns 0
T12A4 002:898.043 JLINK_HasError()
T12A4 002:898.052 JLINK_SetResetType(JLINKARM_CM3_RESET_TYPE_NORMAL)
T12A4 002:898.059 - 0.007ms returns JLINKARM_CM3_RESET_TYPE_NORMAL
T12A4 002:898.067 JLINK_Reset()
T12A4 002:899.923   ResetTarget() start
T12A4 002:899.938    J-Link Script File: Executing ResetTarget()
T12A4 002:905.051   *** ResetTarget
T12A4 002:905.101   CPU_WriteMem(4 bytes @ 0xE0001020)
T12A4 002:905.399   CPU_WriteMem(4 bytes @ 0xE0001028)
T12A4 002:905.672   CPU_WriteMem(4 bytes @ 0xE0001030)
T12A4 002:905.951   CPU_WriteMem(4 bytes @ 0xE0001038)
T12A4 002:906.218   CPU_WriteMem(4 bytes @ 0xE000ED0C)
T12A4 003:008.606   CPU_WriteMem(4 bytes @ 0xE0001020)
T12A4 003:008.959   CPU_WriteMem(4 bytes @ 0xE0001028)
T12A4 003:009.244   CPU_WriteMem(4 bytes @ 0xE0001030)
T12A4 003:009.516   CPU_WriteMem(4 bytes @ 0xE0001038)
T12A4 003:012.026   Target is halted!
T12A4 003:014.112   ResetTarget() end - Took 112ms
T12A4 003:018.649   AfterResetTarget() start
T12A4 003:018.668    J-Link Script File: Executing AfterResetTarget()
T12A4 003:020.141   Target is halted!
T12A4 003:021.655   *** Update SRAM_XEN_DP
T12A4 003:021.683   CPU_WriteMem(4 bytes @ 0x40091D00)
T12A4 003:021.980   CPU_WriteMem(4 bytes @ 0x40091D00)
T12A4 003:022.300   CPU_WriteMem(4 bytes @ 0x40091D00)
T12A4 003:022.586   CPU_WriteMem(4 bytes @ 0x40091D04)
T12A4 003:022.865   CPU_WriteMem(4 bytes @ 0x40091D00)
T12A4 003:023.162   CPU_WriteMem(4 bytes @ 0x40091D04)
T12A4 003:023.449   CPU_WriteMem(4 bytes @ 0x40091D00)
T12A4 003:023.738   CPU_WriteMem(4 bytes @ 0x40091E58)
T12A4 003:024.043   CPU_WriteMem(4 bytes @ 0x40091E5C)
T12A4 003:026.363   *** Update MEM0_BLK_CFG_W
T12A4 003:026.393   CPU_WriteMem(4 bytes @ 0x40091D00)
T12A4 003:026.710   CPU_WriteMem(4 bytes @ 0x40091D00)
T12A4 003:026.996   CPU_WriteMem(4 bytes @ 0x40091D00)
T12A4 003:027.297   CPU_WriteMem(4 bytes @ 0x40091D04)
T12A4 003:027.570   CPU_WriteMem(4 bytes @ 0x40091D00)
T12A4 003:027.855   CPU_WriteMem(4 bytes @ 0x40091D04)
T12A4 003:028.118   CPU_WriteMem(4 bytes @ 0x40091D00)
T12A4 003:028.386   CPU_WriteMem(4 bytes @ 0x4008E020)
T12A4 003:028.665   CPU_WriteMem(4 bytes @ 0x4008E040)
T12A4 003:028.949   CPU_WriteMem(4 bytes @ 0x4008E044)
T12A4 003:029.220   CPU_WriteMem(4 bytes @ 0x4008E180)
T12A4 003:031.633   AfterResetTarget() end - Took 10.8ms
T12A4 003:031.655   CPU_WriteMem(4 bytes @ 0xE0002000)
T12A4 003:031.971   CPU_ReadMem(4 bytes @ 0xE000EDFC)
T12A4 003:032.241   CPU_ReadMem(4 bytes @ 0xE0001000)
T12A4 003:032.508   CPU_ReadMem(4 bytes @ 0xE000EE08)
T12A4 003:032.785 - 134.717ms
T12A4 003:032.822 JLINK_Halt()
T12A4 003:032.831 - 0.008ms returns 0x00
T12A4 003:032.843 JLINK_ReadMemU32(0xE000EDF0, 0x1 Items)
T12A4 003:032.857   CPU_ReadMem(4 bytes @ 0xE000EDF0)
T12A4 003:033.113   Data:  03 00 03 00
T12A4 003:033.131   Debug reg: DHCSR
T12A4 003:033.141 - 0.298ms returns 1 (0x1)
T12A4 003:033.369 JLINK_WriteU32_64(0xE000EDF0, 0xA05F0003)
T12A4 003:033.379   Debug reg: DHCSR
T12A4 003:033.589   CPU_WriteMem(4 bytes @ 0xE000EDF0)
T12A4 003:033.859 - 0.489ms returns 0 (0x00000000)
T12A4 003:033.871 JLINK_WriteU32_64(0xE000EDFC, 0x01000000)
T12A4 003:033.877   Debug reg: DEMCR
T12A4 003:033.889   CPU_WriteMem(4 bytes @ 0xE000EDFC)
T12A4 003:034.157 - 0.285ms returns 0 (0x00000000)
T12A4 003:040.233 JLINK_GetHWStatus(...)
T12A4 003:040.363 - 0.129ms returns 0
T12A4 003:046.112 JLINK_GetNumBPUnits(Type = 0xFFFFFF00)
T12A4 003:046.147 - 0.035ms returns 0x04
T12A4 003:046.154 JLINK_GetNumBPUnits(Type = 0xF0)
T12A4 003:046.160 - 0.005ms returns 0x2000
T12A4 003:046.167 JLINK_GetNumWPUnits()
T12A4 003:046.173 - 0.005ms returns 2
T12A4 003:050.794 JLINK_GetSpeed()
T12A4 003:050.813 - 0.018ms returns 4000
T12A4 003:053.793 JLINK_ReadMemU32(0xE000E004, 0x1 Items)
T12A4 003:053.822   CPU_ReadMem(4 bytes @ 0xE000E004)
T12A4 003:054.100   Data:  03 00 00 00
T12A4 003:054.116 - 0.324ms returns 1 (0x1)
T12A4 003:054.125 JLINK_ReadMemU32(0xE000E004, 0x1 Items)
T12A4 003:054.134   CPU_ReadMem(4 bytes @ 0xE000E004)
T12A4 003:054.383   Data:  03 00 00 00
T12A4 003:054.394 - 0.269ms returns 1 (0x1)
T12A4 003:054.403 JLINK_WriteMemEx(0xE0001000, 0x0000001C Bytes, Flags = 0x02000004)
T12A4 003:054.408   Data:  01 00 00 00 00 00 00 00 00 00 00 00 00 00 00 00 ...
T12A4 003:054.424   CPU_WriteMem(28 bytes @ 0xE0001000)
T12A4 003:054.783 - 0.380ms returns 0x1C
T12A4 003:054.796 JLINK_Halt()
T12A4 003:054.802 - 0.005ms returns 0x00
T12A4 003:054.809 JLINK_IsHalted()
T12A4 003:054.815 - 0.006ms returns TRUE
T12A4 003:059.098 JLINK_WriteMem(0x20000000, 0x63C Bytes, ...)
T12A4 003:059.113   Data:  00 BE 0A E0 0D 78 2D 06 68 40 08 24 40 00 00 D3 ...
T12A4 003:059.305   CPU_WriteMem(1596 bytes @ 0x20000000)
T12A4 003:065.851 - 6.751ms returns 0x63C
T12A4 003:065.940 JLINK_HasError()
T12A4 003:065.951 JLINK_WriteReg(R0, 0x00000000)
T12A4 003:065.966   CPU_ReadMem(4 bytes @ 0xE000EE08)
T12A4 003:066.250 - 0.298ms returns 0
T12A4 003:066.269 JLINK_WriteReg(R1, 0x01F78A40)
T12A4 003:066.280 - 0.010ms returns 0
T12A4 003:066.289 JLINK_WriteReg(R2, 0x00000001)
T12A4 003:066.304 - 0.015ms returns 0
T12A4 003:066.313 JLINK_WriteReg(R3, 0x00000000)
T12A4 003:066.321 - 0.007ms returns 0
T12A4 003:066.329 JLINK_WriteReg(R4, 0x00000000)
T12A4 003:066.336 - 0.007ms returns 0
T12A4 003:066.345 JLINK_WriteReg(R5, 0x00000000)
T12A4 003:066.352 - 0.007ms returns 0
T12A4 003:066.360 JLINK_WriteReg(R6, 0x00000000)
T12A4 003:066.368 - 0.007ms returns 0
T12A4 003:066.376 JLINK_WriteReg(R7, 0x00000000)
T12A4 003:066.383 - 0.007ms returns 0
T12A4 003:066.392 JLINK_WriteReg(R8, 0x00000000)
T12A4 003:066.399 - 0.007ms returns 0
T12A4 003:066.407 JLINK_WriteReg(R9, 0x20000638)
T12A4 003:066.414 - 0.007ms returns 0
T12A4 003:066.422 JLINK_WriteReg(R10, 0x00000000)
T12A4 003:066.430 - 0.007ms returns 0
T12A4 003:066.438 JLINK_WriteReg(R11, 0x00000000)
T12A4 003:066.446 - 0.007ms returns 0
T12A4 003:066.454 JLINK_WriteReg(R12, 0x00000000)
T12A4 003:066.461 - 0.007ms returns 0
T12A4 003:066.469 JLINK_WriteReg(R13 (SP), 0x20001000)
T12A4 003:066.529 - 0.059ms returns 0
T12A4 003:066.541 JLINK_WriteReg(R14, 0x20000001)
T12A4 003:066.548 - 0.007ms returns 0
T12A4 003:066.575 JLINK_WriteReg(R15 (PC), 0x20000154)
T12A4 003:066.584 - 0.027ms returns 0
T12A4 003:066.592 JLINK_WriteReg(XPSR, 0x01000000)
T12A4 003:066.600 - 0.007ms returns 0
T12A4 003:066.608 JLINK_WriteReg(MSP, 0x20001000)
T12A4 003:066.616 - 0.007ms returns 0
T12A4 003:066.623 JLINK_WriteReg(PSP, 0x20001000)
T12A4 003:066.631 - 0.007ms returns 0
T12A4 003:066.639 JLINK_WriteReg(CFBP, 0x00000000)
T12A4 003:066.647 - 0.007ms returns 0
T12A4 003:066.655 JLINK_SetBPEx(Addr = 0x20000000, Type = 0xFFFFFFF2)
T12A4 003:066.664 - 0.008ms returns 0x00000001
T12A4 003:066.672 JLINK_Go()
T12A4 003:066.683   CPU_WriteMem(4 bytes @ 0xE0002000)
T12A4 003:067.003   CPU_ReadMem(4 bytes @ 0xE0001000)
T12A4 003:067.269   CPU_WriteMem(4 bytes @ 0xE0002008)
T12A4 003:067.281   CPU_WriteMem(4 bytes @ 0xE000200C)
T12A4 003:067.290   CPU_WriteMem(4 bytes @ 0xE0002010)
T12A4 003:067.298   CPU_WriteMem(4 bytes @ 0xE0002014)
T12A4 003:068.165   CPU_WriteMem(4 bytes @ 0xE0001004)
T12A4 003:073.276   Memory map 'after startup completion point' is active
T12A4 003:073.304 - 6.631ms
T12A4 003:073.315 JLINK_IsHalted()
T12A4 003:075.911 - 2.595ms returns TRUE
T12A4 003:075.938 JLINK_ReadReg(R15 (PC))
T12A4 003:075.949   CPU_ReadMem(4 bytes @ 0xE000EE08)
T12A4 003:076.210 - 0.272ms returns 0x20000000
T12A4 003:076.221 JLINK_ClrBPEx(BPHandle = 0x00000001)
T12A4 003:076.228 - 0.007ms returns 0x00
T12A4 003:076.235 JLINK_ReadReg(R0)
T12A4 003:076.242 - 0.007ms returns 0x00000000
T12A4 003:076.775 JLINK_HasError()
T12A4 003:076.794 JLINK_WriteReg(R0, 0x00000000)
T12A4 003:076.809 - 0.015ms returns 0
T12A4 003:076.819 JLINK_WriteReg(R1, 0x00002000)
T12A4 003:076.829 - 0.010ms returns 0
T12A4 003:076.839 JLINK_WriteReg(R2, 0x000000FF)
T12A4 003:076.848 - 0.009ms returns 0
T12A4 003:076.857 JLINK_WriteReg(R3, 0x00000000)
T12A4 003:076.865 - 0.008ms returns 0
T12A4 003:076.874 JLINK_WriteReg(R4, 0x00000000)
T12A4 003:076.882 - 0.008ms returns 0
T12A4 003:076.890 JLINK_WriteReg(R5, 0x00000000)
T12A4 003:076.899 - 0.008ms returns 0
T12A4 003:076.908 JLINK_WriteReg(R6, 0x00000000)
T12A4 003:076.917 - 0.008ms returns 0
T12A4 003:076.926 JLINK_WriteReg(R7, 0x00000000)
T12A4 003:076.934 - 0.008ms returns 0
T12A4 003:076.944 JLINK_WriteReg(R8, 0x00000000)
T12A4 003:076.953 - 0.009ms returns 0
T12A4 003:076.961 JLINK_WriteReg(R9, 0x20000638)
T12A4 003:076.970 - 0.009ms returns 0
T12A4 003:076.980 JLINK_WriteReg(R10, 0x00000000)
T12A4 003:077.002 - 0.022ms returns 0
T12A4 003:077.014 JLINK_WriteReg(R11, 0x00000000)
T12A4 003:077.020 - 0.006ms returns 0
T12A4 003:077.027 JLINK_WriteReg(R12, 0x00000000)
T12A4 003:077.033 - 0.006ms returns 0
T12A4 003:077.040 JLINK_WriteReg(R13 (SP), 0x20001000)
T12A4 003:077.047 - 0.007ms returns 0
T12A4 003:077.053 JLINK_WriteReg(R14, 0x20000001)
T12A4 003:077.060 - 0.006ms returns 0
T12A4 003:077.066 JLINK_WriteReg(R15 (PC), 0x20000020)
T12A4 003:077.073 - 0.006ms returns 0
T12A4 003:077.079 JLINK_WriteReg(XPSR, 0x01000000)
T12A4 003:077.085 - 0.006ms returns 0
T12A4 003:077.092 JLINK_WriteReg(MSP, 0x20001000)
T12A4 003:077.098 - 0.006ms returns 0
T12A4 003:077.105 JLINK_WriteReg(PSP, 0x20001000)
T12A4 003:077.111 - 0.006ms returns 0
T12A4 003:077.117 JLINK_WriteReg(CFBP, 0x00000000)
T12A4 003:077.123 - 0.006ms returns 0
T12A4 003:077.131 JLINK_SetBPEx(Addr = 0x20000000, Type = 0xFFFFFFF2)
T12A4 003:077.138 - 0.007ms returns 0x00000002
T12A4 003:077.145 JLINK_Go()
T12A4 003:077.153   CPU_WriteMem(4 bytes @ 0xE0002000)
T12A4 003:077.457   CPU_ReadMem(4 bytes @ 0xE0001000)
T12A4 003:079.986 - 2.840ms
T12A4 003:080.007 JLINK_IsHalted()
T12A4 003:082.558 - 2.549ms returns TRUE
T12A4 003:082.577 JLINK_ReadReg(R15 (PC))
T12A4 003:082.588   CPU_ReadMem(4 bytes @ 0xE000EE08)
T12A4 003:082.862 - 0.284ms returns 0x20000000
T12A4 003:082.875 JLINK_ClrBPEx(BPHandle = 0x00000002)
T12A4 003:082.883 - 0.008ms returns 0x00
T12A4 003:082.897 JLINK_ReadReg(R0)
T12A4 003:082.906 - 0.008ms returns 0x00000001
T12A4 003:082.914 JLINK_HasError()
T12A4 003:082.924 JLINK_WriteReg(R0, 0x00000000)
T12A4 003:082.933 - 0.008ms returns 0
T12A4 003:082.941 JLINK_WriteReg(R1, 0x00002000)
T12A4 003:082.948 - 0.007ms returns 0
T12A4 003:082.957 JLINK_WriteReg(R2, 0x000000FF)
T12A4 003:082.964 - 0.007ms returns 0
T12A4 003:082.972 JLINK_WriteReg(R3, 0x00000000)
T12A4 003:082.980 - 0.007ms returns 0
T12A4 003:082.988 JLINK_WriteReg(R4, 0x00000000)
T12A4 003:082.995 - 0.007ms returns 0
T12A4 003:083.003 JLINK_WriteReg(R5, 0x00000000)
T12A4 003:083.011 - 0.007ms returns 0
T12A4 003:083.019 JLINK_WriteReg(R6, 0x00000000)
T12A4 003:083.026 - 0.007ms returns 0
T12A4 003:083.034 JLINK_WriteReg(R7, 0x00000000)
T12A4 003:083.042 - 0.007ms returns 0
T12A4 003:083.050 JLINK_WriteReg(R8, 0x00000000)
T12A4 003:083.057 - 0.007ms returns 0
T12A4 003:083.065 JLINK_WriteReg(R9, 0x20000638)
T12A4 003:083.073 - 0.007ms returns 0
T12A4 003:083.081 JLINK_WriteReg(R10, 0x00000000)
T12A4 003:083.089 - 0.007ms returns 0
T12A4 003:083.097 JLINK_WriteReg(R11, 0x00000000)
T12A4 003:083.104 - 0.007ms returns 0
T12A4 003:083.112 JLINK_WriteReg(R12, 0x00000000)
T12A4 003:083.120 - 0.007ms returns 0
T12A4 003:083.128 JLINK_WriteReg(R13 (SP), 0x20001000)
T12A4 003:083.136 - 0.008ms returns 0
T12A4 003:083.144 JLINK_WriteReg(R14, 0x20000001)
T12A4 003:083.151 - 0.007ms returns 0
T12A4 003:083.160 JLINK_WriteReg(R15 (PC), 0x20000210)
T12A4 003:083.167 - 0.007ms returns 0
T12A4 003:083.175 JLINK_WriteReg(XPSR, 0x01000000)
T12A4 003:083.183 - 0.007ms returns 0
T12A4 003:083.191 JLINK_WriteReg(MSP, 0x20001000)
T12A4 003:083.199 - 0.007ms returns 0
T12A4 003:083.207 JLINK_WriteReg(PSP, 0x20001000)
T12A4 003:083.214 - 0.007ms returns 0
T12A4 003:083.222 JLINK_WriteReg(CFBP, 0x00000000)
T12A4 003:083.230 - 0.007ms returns 0
T12A4 003:083.238 JLINK_SetBPEx(Addr = 0x20000000, Type = 0xFFFFFFF2)
T12A4 003:083.246 - 0.007ms returns 0x00000003
T12A4 003:083.254 JLINK_Go()
T12A4 003:083.263   CPU_WriteMem(4 bytes @ 0xE0002000)
T12A4 003:083.549   CPU_ReadMem(4 bytes @ 0xE0001000)
T12A4 003:086.081 - 2.826ms
T12A4 003:086.103 JLINK_IsHalted()
T12A4 003:086.352 - 0.248ms returns FALSE
T12A4 003:086.366 JLINK_HasError()
T12A4 003:130.104 JLINK_IsHalted()
T12A4 003:132.723 - 2.619ms returns TRUE
T12A4 003:132.742 JLINK_ReadReg(R15 (PC))
T12A4 003:132.754   CPU_ReadMem(4 bytes @ 0xE000EE08)
T12A4 003:133.024 - 0.281ms returns 0x20000000
T12A4 003:133.040 JLINK_ClrBPEx(BPHandle = 0x00000003)
T12A4 003:133.048 - 0.007ms returns 0x00
T12A4 003:133.055 JLINK_ReadReg(R0)
T12A4 003:133.063 - 0.007ms returns 0x00000000
T12A4 003:133.588 JLINK_HasError()
T12A4 003:133.604 JLINK_WriteReg(R0, 0x00000001)
T12A4 003:133.613 - 0.009ms returns 0
T12A4 003:133.620 JLINK_WriteReg(R1, 0x00002000)
T12A4 003:133.627 - 0.006ms returns 0
T12A4 003:133.633 JLINK_WriteReg(R2, 0x000000FF)
T12A4 003:133.640 - 0.006ms returns 0
T12A4 003:133.646 JLINK_WriteReg(R3, 0x00000000)
T12A4 003:133.653 - 0.006ms returns 0
T12A4 003:133.659 JLINK_WriteReg(R4, 0x00000000)
T12A4 003:133.665 - 0.006ms returns 0
T12A4 003:133.672 JLINK_WriteReg(R5, 0x00000000)
T12A4 003:133.678 - 0.006ms returns 0
T12A4 003:133.685 JLINK_WriteReg(R6, 0x00000000)
T12A4 003:133.691 - 0.006ms returns 0
T12A4 003:133.697 JLINK_WriteReg(R7, 0x00000000)
T12A4 003:133.704 - 0.006ms returns 0
T12A4 003:133.710 JLINK_WriteReg(R8, 0x00000000)
T12A4 003:133.716 - 0.006ms returns 0
T12A4 003:133.723 JLINK_WriteReg(R9, 0x20000638)
T12A4 003:133.729 - 0.006ms returns 0
T12A4 003:133.736 JLINK_WriteReg(R10, 0x00000000)
T12A4 003:133.742 - 0.006ms returns 0
T12A4 003:133.748 JLINK_WriteReg(R11, 0x00000000)
T12A4 003:133.755 - 0.006ms returns 0
T12A4 003:133.761 JLINK_WriteReg(R12, 0x00000000)
T12A4 003:133.767 - 0.006ms returns 0
T12A4 003:133.774 JLINK_WriteReg(R13 (SP), 0x20001000)
T12A4 003:133.781 - 0.006ms returns 0
T12A4 003:133.787 JLINK_WriteReg(R14, 0x20000001)
T12A4 003:133.797 - 0.009ms returns 0
T12A4 003:133.806 JLINK_WriteReg(R15 (PC), 0x200001B8)
T12A4 003:133.813 - 0.006ms returns 0
T12A4 003:133.819 JLINK_WriteReg(XPSR, 0x01000000)
T12A4 003:133.826 - 0.006ms returns 0
T12A4 003:133.832 JLINK_WriteReg(MSP, 0x20001000)
T12A4 003:133.847 - 0.015ms returns 0
T12A4 003:133.854 JLINK_WriteReg(PSP, 0x20001000)
T12A4 003:133.860 - 0.006ms returns 0
T12A4 003:133.867 JLINK_WriteReg(CFBP, 0x00000000)
T12A4 003:133.873 - 0.006ms returns 0
T12A4 003:133.880 JLINK_SetBPEx(Addr = 0x20000000, Type = 0xFFFFFFF2)
T12A4 003:133.888 - 0.007ms returns 0x00000004
T12A4 003:133.895 JLINK_Go()
T12A4 003:133.904   CPU_WriteMem(4 bytes @ 0xE0002000)
T12A4 003:134.190   CPU_ReadMem(4 bytes @ 0xE0001000)
T12A4 003:136.753 - 2.857ms
T12A4 003:136.773 JLINK_IsHalted()
T12A4 003:139.339 - 2.565ms returns TRUE
T12A4 003:139.366 JLINK_ReadReg(R15 (PC))
T12A4 003:139.380   CPU_ReadMem(4 bytes @ 0xE000EE08)
T12A4 003:139.640 - 0.273ms returns 0x20000000
T12A4 003:139.664 JLINK_ClrBPEx(BPHandle = 0x00000004)
T12A4 003:139.673 - 0.009ms returns 0x00
T12A4 003:139.685 JLINK_ReadReg(R0)
T12A4 003:139.695 - 0.009ms returns 0x00000000
T12A4 003:197.810 JLINK_WriteMem(0x20000000, 0x63C Bytes, ...)
T12A4 003:197.826   Data:  00 BE 0A E0 0D 78 2D 06 68 40 08 24 40 00 00 D3 ...
T12A4 003:197.851   CPU_WriteMem(1596 bytes @ 0x20000000)
T12A4 003:204.369 - 6.560ms returns 0x63C
T12A4 003:204.434 JLINK_HasError()
T12A4 003:204.444 JLINK_WriteReg(R0, 0x00000000)
T12A4 003:204.463 - 0.019ms returns 0
T12A4 003:204.470 JLINK_WriteReg(R1, 0x01F78A40)
T12A4 003:204.477 - 0.006ms returns 0
T12A4 003:204.483 JLINK_WriteReg(R2, 0x00000002)
T12A4 003:204.490 - 0.006ms returns 0
T12A4 003:204.496 JLINK_WriteReg(R3, 0x00000000)
T12A4 003:204.502 - 0.006ms returns 0
T12A4 003:204.509 JLINK_WriteReg(R4, 0x00000000)
T12A4 003:204.516 - 0.006ms returns 0
T12A4 003:204.522 JLINK_WriteReg(R5, 0x00000000)
T12A4 003:204.528 - 0.006ms returns 0
T12A4 003:204.534 JLINK_WriteReg(R6, 0x00000000)
T12A4 003:204.541 - 0.006ms returns 0
T12A4 003:204.547 JLINK_WriteReg(R7, 0x00000000)
T12A4 003:204.553 - 0.006ms returns 0
T12A4 003:204.560 JLINK_WriteReg(R8, 0x00000000)
T12A4 003:204.566 - 0.006ms returns 0
T12A4 003:204.572 JLINK_WriteReg(R9, 0x20000638)
T12A4 003:204.578 - 0.006ms returns 0
T12A4 003:204.585 JLINK_WriteReg(R10, 0x00000000)
T12A4 003:204.591 - 0.006ms returns 0
T12A4 003:204.597 JLINK_WriteReg(R11, 0x00000000)
T12A4 003:204.603 - 0.006ms returns 0
T12A4 003:204.610 JLINK_WriteReg(R12, 0x00000000)
T12A4 003:204.616 - 0.006ms returns 0
T12A4 003:204.622 JLINK_WriteReg(R13 (SP), 0x20001000)
T12A4 003:204.629 - 0.007ms returns 0
T12A4 003:204.636 JLINK_WriteReg(R14, 0x20000001)
T12A4 003:204.642 - 0.006ms returns 0
T12A4 003:204.648 JLINK_WriteReg(R15 (PC), 0x20000154)
T12A4 003:204.654 - 0.006ms returns 0
T12A4 003:204.661 JLINK_WriteReg(XPSR, 0x01000000)
T12A4 003:204.667 - 0.006ms returns 0
T12A4 003:204.673 JLINK_WriteReg(MSP, 0x20001000)
T12A4 003:204.679 - 0.006ms returns 0
T12A4 003:204.686 JLINK_WriteReg(PSP, 0x20001000)
T12A4 003:204.692 - 0.006ms returns 0
T12A4 003:204.698 JLINK_WriteReg(CFBP, 0x00000000)
T12A4 003:204.704 - 0.006ms returns 0
T12A4 003:204.712 JLINK_SetBPEx(Addr = 0x20000000, Type = 0xFFFFFFF2)
T12A4 003:204.719 - 0.007ms returns 0x00000005
T12A4 003:204.725 JLINK_Go()
T12A4 003:204.735   CPU_WriteMem(4 bytes @ 0xE0002000)
T12A4 003:205.059   CPU_ReadMem(4 bytes @ 0xE0001000)
T12A4 003:207.617 - 2.891ms
T12A4 003:207.636 JLINK_IsHalted()
T12A4 003:210.163 - 2.526ms returns TRUE
T12A4 003:210.177 JLINK_ReadReg(R15 (PC))
T12A4 003:210.186   CPU_ReadMem(4 bytes @ 0xE000EE08)
T12A4 003:210.469 - 0.291ms returns 0x20000000
T12A4 003:210.488 JLINK_ClrBPEx(BPHandle = 0x00000005)
T12A4 003:210.498 - 0.009ms returns 0x00
T12A4 003:210.507 JLINK_ReadReg(R0)
T12A4 003:210.516 - 0.009ms returns 0x00000000
T12A4 003:211.043 JLINK_WriteMem(0x20000668, 0x80 Bytes, ...)
T12A4 003:211.057   Data:  00 60 00 20 15 02 00 00 4D 02 00 00 51 02 00 00 ...
T12A4 003:211.085   CPU_WriteMem(128 bytes @ 0x20000668)
T12A4 003:211.844 - 0.801ms returns 0x80
T12A4 003:211.861 JLINK_HasError()
T12A4 003:211.870 JLINK_WriteReg(R0, 0x00000000)
T12A4 003:211.881 - 0.010ms returns 0
T12A4 003:211.889 JLINK_WriteReg(R1, 0x00000080)
T12A4 003:211.897 - 0.008ms returns 0
T12A4 003:211.905 JLINK_WriteReg(R2, 0x20000668)
T12A4 003:211.913 - 0.007ms returns 0
T12A4 003:211.921 JLINK_WriteReg(R3, 0x00000000)
T12A4 003:211.928 - 0.007ms returns 0
T12A4 003:211.936 JLINK_WriteReg(R4, 0x00000000)
T12A4 003:211.944 - 0.007ms returns 0
T12A4 003:211.952 JLINK_WriteReg(R5, 0x00000000)
T12A4 003:211.959 - 0.007ms returns 0
T12A4 003:211.967 JLINK_WriteReg(R6, 0x00000000)
T12A4 003:211.975 - 0.007ms returns 0
T12A4 003:211.983 JLINK_WriteReg(R7, 0x00000000)
T12A4 003:211.990 - 0.007ms returns 0
T12A4 003:211.999 JLINK_WriteReg(R8, 0x00000000)
T12A4 003:212.006 - 0.007ms returns 0
T12A4 003:212.014 JLINK_WriteReg(R9, 0x20000638)
T12A4 003:212.022 - 0.007ms returns 0
T12A4 003:212.030 JLINK_WriteReg(R10, 0x00000000)
T12A4 003:212.037 - 0.007ms returns 0
T12A4 003:212.046 JLINK_WriteReg(R11, 0x00000000)
T12A4 003:212.053 - 0.007ms returns 0
T12A4 003:212.061 JLINK_WriteReg(R12, 0x00000000)
T12A4 003:212.068 - 0.007ms returns 0
T12A4 003:212.075 JLINK_WriteReg(R13 (SP), 0x20001000)
T12A4 003:212.082 - 0.007ms returns 0
T12A4 003:212.088 JLINK_WriteReg(R14, 0x20000001)
T12A4 003:212.094 - 0.006ms returns 0
T12A4 003:212.101 JLINK_WriteReg(R15 (PC), 0x20000284)
T12A4 003:212.107 - 0.006ms returns 0
T12A4 003:212.114 JLINK_WriteReg(XPSR, 0x01000000)
T12A4 003:212.120 - 0.006ms returns 0
T12A4 003:212.126 JLINK_WriteReg(MSP, 0x20001000)
T12A4 003:212.132 - 0.005ms returns 0
T12A4 003:212.139 JLINK_WriteReg(PSP, 0x20001000)
T12A4 003:212.145 - 0.006ms returns 0
T12A4 003:212.151 JLINK_WriteReg(CFBP, 0x00000000)
T12A4 003:212.157 - 0.006ms returns 0
T12A4 003:212.164 JLINK_SetBPEx(Addr = 0x20000000, Type = 0xFFFFFFF2)
T12A4 003:212.170 - 0.006ms returns 0x00000006
T12A4 003:212.177 JLINK_Go()
T12A4 003:212.185   CPU_WriteMem(4 bytes @ 0xE0002000)
T12A4 003:212.472   CPU_ReadMem(4 bytes @ 0xE0001000)
T12A4 003:215.002 - 2.824ms
T12A4 003:215.024 JLINK_IsHalted()
T12A4 003:215.293 - 0.269ms returns FALSE
T12A4 003:215.307 JLINK_HasError()
T12A4 003:222.004 JLINK_IsHalted()
T12A4 003:224.617 - 2.612ms returns TRUE
T12A4 003:224.644 JLINK_ReadReg(R15 (PC))
T12A4 003:224.658   CPU_ReadMem(4 bytes @ 0xE000EE08)
T12A4 003:224.926 - 0.282ms returns 0x20000000
T12A4 003:224.938 JLINK_ClrBPEx(BPHandle = 0x00000006)
T12A4 003:224.947 - 0.008ms returns 0x00
T12A4 003:224.956 JLINK_ReadReg(R0)
T12A4 003:224.964 - 0.008ms returns 0x00000000
T12A4 003:225.626 JLINK_WriteMem(0x20000668, 0x80 Bytes, ...)
T12A4 003:225.640   Data:  A1 02 00 00 A5 02 00 00 A9 02 00 00 AD 02 00 00 ...
T12A4 003:225.655   CPU_WriteMem(128 bytes @ 0x20000668)
T12A4 003:226.427 - 0.801ms returns 0x80
T12A4 003:226.444 JLINK_HasError()
T12A4 003:226.454 JLINK_WriteReg(R0, 0x00000080)
T12A4 003:226.466 - 0.011ms returns 0
T12A4 003:226.475 JLINK_WriteReg(R1, 0x00000080)
T12A4 003:226.484 - 0.008ms returns 0
T12A4 003:226.493 JLINK_WriteReg(R2, 0x20000668)
T12A4 003:226.512 - 0.019ms returns 0
T12A4 003:226.522 JLINK_WriteReg(R3, 0x00000000)
T12A4 003:226.530 - 0.008ms returns 0
T12A4 003:226.539 JLINK_WriteReg(R4, 0x00000000)
T12A4 003:226.547 - 0.008ms returns 0
T12A4 003:226.556 JLINK_WriteReg(R5, 0x00000000)
T12A4 003:226.564 - 0.008ms returns 0
T12A4 003:226.573 JLINK_WriteReg(R6, 0x00000000)
T12A4 003:226.581 - 0.008ms returns 0
T12A4 003:226.590 JLINK_WriteReg(R7, 0x00000000)
T12A4 003:226.598 - 0.008ms returns 0
T12A4 003:226.607 JLINK_WriteReg(R8, 0x00000000)
T12A4 003:226.615 - 0.008ms returns 0
T12A4 003:226.623 JLINK_WriteReg(R9, 0x20000638)
T12A4 003:226.632 - 0.008ms returns 0
T12A4 003:226.640 JLINK_WriteReg(R10, 0x00000000)
T12A4 003:226.649 - 0.008ms returns 0
T12A4 003:226.658 JLINK_WriteReg(R11, 0x00000000)
T12A4 003:226.666 - 0.008ms returns 0
T12A4 003:226.730 JLINK_WriteReg(R12, 0x00000000)
T12A4 003:226.739 - 0.009ms returns 0
T12A4 003:226.748 JLINK_WriteReg(R13 (SP), 0x20001000)
T12A4 003:226.758 - 0.009ms returns 0
T12A4 003:226.766 JLINK_WriteReg(R14, 0x20000001)
T12A4 003:226.775 - 0.008ms returns 0
T12A4 003:226.783 JLINK_WriteReg(R15 (PC), 0x20000284)
T12A4 003:226.792 - 0.008ms returns 0
T12A4 003:226.800 JLINK_WriteReg(XPSR, 0x01000000)
T12A4 003:226.809 - 0.008ms returns 0
T12A4 003:226.817 JLINK_WriteReg(MSP, 0x20001000)
T12A4 003:226.826 - 0.008ms returns 0
T12A4 003:226.834 JLINK_WriteReg(PSP, 0x20001000)
T12A4 003:226.842 - 0.008ms returns 0
T12A4 003:226.851 JLINK_WriteReg(CFBP, 0x00000000)
T12A4 003:226.859 - 0.008ms returns 0
T12A4 003:226.868 JLINK_SetBPEx(Addr = 0x20000000, Type = 0xFFFFFFF2)
T12A4 003:226.877 - 0.008ms returns 0x00000007
T12A4 003:226.886 JLINK_Go()
T12A4 003:226.895   CPU_WriteMem(4 bytes @ 0xE0002000)
T12A4 003:227.186   CPU_ReadMem(4 bytes @ 0xE0001000)
T12A4 003:229.706 - 2.819ms
T12A4 003:229.726 JLINK_IsHalted()
T12A4 003:230.014 - 0.287ms returns FALSE
T12A4 003:230.033 JLINK_HasError()
T12A4 003:232.094 JLINK_IsHalted()
T12A4 003:234.615 - 2.520ms returns TRUE
T12A4 003:234.631 JLINK_ReadReg(R15 (PC))
T12A4 003:234.640   CPU_ReadMem(4 bytes @ 0xE000EE08)
T12A4 003:234.896 - 0.264ms returns 0x20000000
T12A4 003:234.909 JLINK_ClrBPEx(BPHandle = 0x00000007)
T12A4 003:234.917 - 0.007ms returns 0x00
T12A4 003:234.924 JLINK_ReadReg(R0)
T12A4 003:234.930 - 0.006ms returns 0x00000000
T12A4 003:235.586 JLINK_WriteMem(0x20000668, 0x80 Bytes, ...)
T12A4 003:235.599   Data:  21 03 00 00 25 03 00 00 29 03 00 00 2D 03 00 00 ...
T12A4 003:235.625   CPU_WriteMem(128 bytes @ 0x20000668)
T12A4 003:236.388 - 0.802ms returns 0x80
T12A4 003:236.406 JLINK_HasError()
T12A4 003:236.416 JLINK_WriteReg(R0, 0x00000100)
T12A4 003:236.427 - 0.011ms returns 0
T12A4 003:236.436 JLINK_WriteReg(R1, 0x00000080)
T12A4 003:236.444 - 0.008ms returns 0
T12A4 003:236.453 JLINK_WriteReg(R2, 0x20000668)
T12A4 003:236.461 - 0.008ms returns 0
T12A4 003:236.470 JLINK_WriteReg(R3, 0x00000000)
T12A4 003:236.478 - 0.008ms returns 0
T12A4 003:236.487 JLINK_WriteReg(R4, 0x00000000)
T12A4 003:236.495 - 0.008ms returns 0
T12A4 003:236.504 JLINK_WriteReg(R5, 0x00000000)
T12A4 003:236.512 - 0.008ms returns 0
T12A4 003:236.521 JLINK_WriteReg(R6, 0x00000000)
T12A4 003:236.529 - 0.008ms returns 0
T12A4 003:236.537 JLINK_WriteReg(R7, 0x00000000)
T12A4 003:236.545 - 0.007ms returns 0
T12A4 003:236.554 JLINK_WriteReg(R8, 0x00000000)
T12A4 003:236.562 - 0.008ms returns 0
T12A4 003:236.571 JLINK_WriteReg(R9, 0x20000638)
T12A4 003:236.579 - 0.008ms returns 0
T12A4 003:236.588 JLINK_WriteReg(R10, 0x00000000)
T12A4 003:236.596 - 0.008ms returns 0
T12A4 003:236.604 JLINK_WriteReg(R11, 0x00000000)
T12A4 003:236.613 - 0.008ms returns 0
T12A4 003:236.621 JLINK_WriteReg(R12, 0x00000000)
T12A4 003:236.630 - 0.008ms returns 0
T12A4 003:236.638 JLINK_WriteReg(R13 (SP), 0x20001000)
T12A4 003:236.647 - 0.009ms returns 0
T12A4 003:236.656 JLINK_WriteReg(R14, 0x20000001)
T12A4 003:236.664 - 0.008ms returns 0
T12A4 003:236.673 JLINK_WriteReg(R15 (PC), 0x20000284)
T12A4 003:236.681 - 0.008ms returns 0
T12A4 003:236.690 JLINK_WriteReg(XPSR, 0x01000000)
T12A4 003:236.698 - 0.008ms returns 0
T12A4 003:236.707 JLINK_WriteReg(MSP, 0x20001000)
T12A4 003:236.715 - 0.008ms returns 0
T12A4 003:236.724 JLINK_WriteReg(PSP, 0x20001000)
T12A4 003:236.732 - 0.008ms returns 0
T12A4 003:236.741 JLINK_WriteReg(CFBP, 0x00000000)
T12A4 003:236.749 - 0.008ms returns 0
T12A4 003:236.758 JLINK_SetBPEx(Addr = 0x20000000, Type = 0xFFFFFFF2)
T12A4 003:236.766 - 0.008ms returns 0x00000008
T12A4 003:236.775 JLINK_Go()
T12A4 003:236.785   CPU_WriteMem(4 bytes @ 0xE0002000)
T12A4 003:237.066   CPU_ReadMem(4 bytes @ 0xE0001000)
T12A4 003:239.585 - 2.809ms
T12A4 003:239.603 JLINK_IsHalted()
T12A4 003:239.854 - 0.250ms returns FALSE
T12A4 003:239.872 JLINK_HasError()
T12A4 003:241.141 JLINK_IsHalted()
T12A4 003:243.722 - 2.580ms returns TRUE
T12A4 003:243.817 JLINK_ReadReg(R15 (PC))
T12A4 003:243.833   CPU_ReadMem(4 bytes @ 0xE000EE08)
T12A4 003:244.103 - 0.286ms returns 0x20000000
T12A4 003:244.118 JLINK_ClrBPEx(BPHandle = 0x00000008)
T12A4 003:244.126 - 0.007ms returns 0x00
T12A4 003:244.133 JLINK_ReadReg(R0)
T12A4 003:244.140 - 0.007ms returns 0x00000000
T12A4 003:244.732 JLINK_WriteMem(0x20000668, 0x80 Bytes, ...)
T12A4 003:244.743   Data:  00 00 00 00 00 00 00 00 00 00 00 00 00 00 00 00 ...
T12A4 003:244.758   CPU_WriteMem(128 bytes @ 0x20000668)
T12A4 003:245.508 - 0.775ms returns 0x80
T12A4 003:245.527 JLINK_HasError()
T12A4 003:245.536 JLINK_WriteReg(R0, 0x00000180)
T12A4 003:245.547 - 0.010ms returns 0
T12A4 003:245.555 JLINK_WriteReg(R1, 0x00000080)
T12A4 003:245.563 - 0.008ms returns 0
T12A4 003:245.571 JLINK_WriteReg(R2, 0x20000668)
T12A4 003:245.579 - 0.007ms returns 0
T12A4 003:245.587 JLINK_WriteReg(R3, 0x00000000)
T12A4 003:245.595 - 0.007ms returns 0
T12A4 003:245.603 JLINK_WriteReg(R4, 0x00000000)
T12A4 003:245.610 - 0.007ms returns 0
T12A4 003:245.619 JLINK_WriteReg(R5, 0x00000000)
T12A4 003:245.626 - 0.007ms returns 0
T12A4 003:245.634 JLINK_WriteReg(R6, 0x00000000)
T12A4 003:245.642 - 0.007ms returns 0
T12A4 003:245.650 JLINK_WriteReg(R7, 0x00000000)
T12A4 003:245.657 - 0.007ms returns 0
T12A4 003:245.665 JLINK_WriteReg(R8, 0x00000000)
T12A4 003:245.673 - 0.007ms returns 0
T12A4 003:245.681 JLINK_WriteReg(R9, 0x20000638)
T12A4 003:245.688 - 0.007ms returns 0
T12A4 003:245.696 JLINK_WriteReg(R10, 0x00000000)
T12A4 003:245.704 - 0.007ms returns 0
T12A4 003:245.712 JLINK_WriteReg(R11, 0x00000000)
T12A4 003:245.719 - 0.007ms returns 0
T12A4 003:245.727 JLINK_WriteReg(R12, 0x00000000)
T12A4 003:245.735 - 0.007ms returns 0
T12A4 003:245.743 JLINK_WriteReg(R13 (SP), 0x20001000)
T12A4 003:245.751 - 0.008ms returns 0
T12A4 003:245.759 JLINK_WriteReg(R14, 0x20000001)
T12A4 003:245.767 - 0.007ms returns 0
T12A4 003:245.775 JLINK_WriteReg(R15 (PC), 0x20000284)
T12A4 003:245.782 - 0.007ms returns 0
T12A4 003:245.790 JLINK_WriteReg(XPSR, 0x01000000)
T12A4 003:245.798 - 0.007ms returns 0
T12A4 003:245.806 JLINK_WriteReg(MSP, 0x20001000)
T12A4 003:245.813 - 0.007ms returns 0
T12A4 003:245.822 JLINK_WriteReg(PSP, 0x20001000)
T12A4 003:245.829 - 0.007ms returns 0
T12A4 003:245.837 JLINK_WriteReg(CFBP, 0x00000000)
T12A4 003:245.845 - 0.007ms returns 0
T12A4 003:245.853 JLINK_SetBPEx(Addr = 0x20000000, Type = 0xFFFFFFF2)
T12A4 003:245.861 - 0.008ms returns 0x00000009
T12A4 003:245.869 JLINK_Go()
T12A4 003:245.878   CPU_WriteMem(4 bytes @ 0xE0002000)
T12A4 003:246.201   CPU_ReadMem(4 bytes @ 0xE0001000)
T12A4 003:248.684 - 2.814ms
T12A4 003:248.702 JLINK_IsHalted()
T12A4 003:248.942 - 0.240ms returns FALSE
T12A4 003:248.954 JLINK_HasError()
T12A4 003:250.170 JLINK_IsHalted()
T12A4 003:252.715 - 2.544ms returns TRUE
T12A4 003:252.735 JLINK_ReadReg(R15 (PC))
T12A4 003:252.746   CPU_ReadMem(4 bytes @ 0xE000EE08)
T12A4 003:253.012 - 0.276ms returns 0x20000000
T12A4 003:253.030 JLINK_ClrBPEx(BPHandle = 0x00000009)
T12A4 003:253.039 - 0.009ms returns 0x00
T12A4 003:253.048 JLINK_ReadReg(R0)
T12A4 003:253.058 - 0.009ms returns 0x00000000
T12A4 003:253.784 JLINK_WriteMem(0x20000668, 0x80 Bytes, ...)
T12A4 003:253.800   Data:  DF F8 0C D0 00 F0 76 F9 00 48 00 47 19 06 00 00 ...
T12A4 003:253.819   CPU_WriteMem(128 bytes @ 0x20000668)
T12A4 003:254.587 - 0.803ms returns 0x80
T12A4 003:254.600 JLINK_HasError()
T12A4 003:254.609 JLINK_WriteReg(R0, 0x00000200)
T12A4 003:254.620 - 0.010ms returns 0
T12A4 003:254.628 JLINK_WriteReg(R1, 0x00000080)
T12A4 003:254.636 - 0.008ms returns 0
T12A4 003:254.645 JLINK_WriteReg(R2, 0x20000668)
T12A4 003:254.652 - 0.007ms returns 0
T12A4 003:254.660 JLINK_WriteReg(R3, 0x00000000)
T12A4 003:254.668 - 0.007ms returns 0
T12A4 003:254.676 JLINK_WriteReg(R4, 0x00000000)
T12A4 003:254.684 - 0.007ms returns 0
T12A4 003:254.692 JLINK_WriteReg(R5, 0x00000000)
T12A4 003:254.699 - 0.007ms returns 0
T12A4 003:254.707 JLINK_WriteReg(R6, 0x00000000)
T12A4 003:254.759 - 0.051ms returns 0
T12A4 003:254.770 JLINK_WriteReg(R7, 0x00000000)
T12A4 003:254.778 - 0.007ms returns 0
T12A4 003:254.786 JLINK_WriteReg(R8, 0x00000000)
T12A4 003:254.793 - 0.007ms returns 0
T12A4 003:254.801 JLINK_WriteReg(R9, 0x20000638)
T12A4 003:254.809 - 0.007ms returns 0
T12A4 003:254.817 JLINK_WriteReg(R10, 0x00000000)
T12A4 003:254.825 - 0.007ms returns 0
T12A4 003:254.833 JLINK_WriteReg(R11, 0x00000000)
T12A4 003:254.841 - 0.007ms returns 0
T12A4 003:254.849 JLINK_WriteReg(R12, 0x00000000)
T12A4 003:254.856 - 0.007ms returns 0
T12A4 003:254.864 JLINK_WriteReg(R13 (SP), 0x20001000)
T12A4 003:254.873 - 0.008ms returns 0
T12A4 003:254.881 JLINK_WriteReg(R14, 0x20000001)
T12A4 003:254.888 - 0.007ms returns 0
T12A4 003:254.897 JLINK_WriteReg(R15 (PC), 0x20000284)
T12A4 003:254.904 - 0.007ms returns 0
T12A4 003:254.912 JLINK_WriteReg(XPSR, 0x01000000)
T12A4 003:254.920 - 0.007ms returns 0
T12A4 003:254.928 JLINK_WriteReg(MSP, 0x20001000)
T12A4 003:254.936 - 0.007ms returns 0
T12A4 003:254.944 JLINK_WriteReg(PSP, 0x20001000)
T12A4 003:254.951 - 0.007ms returns 0
T12A4 003:254.959 JLINK_WriteReg(CFBP, 0x00000000)
T12A4 003:254.967 - 0.007ms returns 0
T12A4 003:254.976 JLINK_SetBPEx(Addr = 0x20000000, Type = 0xFFFFFFF2)
T12A4 003:254.983 - 0.007ms returns 0x0000000A
T12A4 003:254.991 JLINK_Go()
T12A4 003:255.000   CPU_WriteMem(4 bytes @ 0xE0002000)
T12A4 003:255.299   CPU_ReadMem(4 bytes @ 0xE0001000)
T12A4 003:257.826 - 2.834ms
T12A4 003:257.841 JLINK_IsHalted()
T12A4 003:258.087 - 0.245ms returns FALSE
T12A4 003:258.099 JLINK_HasError()
T12A4 003:259.266 JLINK_IsHalted()
T12A4 003:261.817 - 2.550ms returns TRUE
T12A4 003:261.835 JLINK_ReadReg(R15 (PC))
T12A4 003:261.845   CPU_ReadMem(4 bytes @ 0xE000EE08)
T12A4 003:262.105 - 0.270ms returns 0x20000000
T12A4 003:262.119 JLINK_ClrBPEx(BPHandle = 0x0000000A)
T12A4 003:262.130 - 0.011ms returns 0x00
T12A4 003:262.146 JLINK_ReadReg(R0)
T12A4 003:262.156 - 0.010ms returns 0x00000000
T12A4 003:263.132 JLINK_WriteMem(0x20000668, 0x80 Bytes, ...)
T12A4 003:263.148   Data:  54 48 00 47 54 48 00 47 54 48 00 47 54 48 00 47 ...
T12A4 003:263.167   CPU_WriteMem(128 bytes @ 0x20000668)
T12A4 003:263.970 - 0.838ms returns 0x80
T12A4 003:263.985 JLINK_HasError()
T12A4 003:263.993 JLINK_WriteReg(R0, 0x00000280)
T12A4 003:264.002 - 0.008ms returns 0
T12A4 003:264.008 JLINK_WriteReg(R1, 0x00000080)
T12A4 003:264.015 - 0.007ms returns 0
T12A4 003:264.022 JLINK_WriteReg(R2, 0x20000668)
T12A4 003:264.028 - 0.006ms returns 0
T12A4 003:264.035 JLINK_WriteReg(R3, 0x00000000)
T12A4 003:264.041 - 0.006ms returns 0
T12A4 003:264.047 JLINK_WriteReg(R4, 0x00000000)
T12A4 003:264.053 - 0.006ms returns 0
T12A4 003:264.060 JLINK_WriteReg(R5, 0x00000000)
T12A4 003:264.066 - 0.006ms returns 0
T12A4 003:264.072 JLINK_WriteReg(R6, 0x00000000)
T12A4 003:264.078 - 0.005ms returns 0
T12A4 003:264.085 JLINK_WriteReg(R7, 0x00000000)
T12A4 003:264.091 - 0.006ms returns 0
T12A4 003:264.097 JLINK_WriteReg(R8, 0x00000000)
T12A4 003:264.103 - 0.006ms returns 0
T12A4 003:264.110 JLINK_WriteReg(R9, 0x20000638)
T12A4 003:264.116 - 0.005ms returns 0
T12A4 003:264.122 JLINK_WriteReg(R10, 0x00000000)
T12A4 003:264.128 - 0.006ms returns 0
T12A4 003:264.134 JLINK_WriteReg(R11, 0x00000000)
T12A4 003:264.140 - 0.006ms returns 0
T12A4 003:264.147 JLINK_WriteReg(R12, 0x00000000)
T12A4 003:264.153 - 0.006ms returns 0
T12A4 003:264.159 JLINK_WriteReg(R13 (SP), 0x20001000)
T12A4 003:264.166 - 0.006ms returns 0
T12A4 003:264.172 JLINK_WriteReg(R14, 0x20000001)
T12A4 003:264.179 - 0.006ms returns 0
T12A4 003:264.185 JLINK_WriteReg(R15 (PC), 0x20000284)
T12A4 003:264.191 - 0.006ms returns 0
T12A4 003:264.198 JLINK_WriteReg(XPSR, 0x01000000)
T12A4 003:264.204 - 0.006ms returns 0
T12A4 003:264.210 JLINK_WriteReg(MSP, 0x20001000)
T12A4 003:264.216 - 0.006ms returns 0
T12A4 003:264.223 JLINK_WriteReg(PSP, 0x20001000)
T12A4 003:264.229 - 0.006ms returns 0
T12A4 003:264.235 JLINK_WriteReg(CFBP, 0x00000000)
T12A4 003:264.292 - 0.056ms returns 0
T12A4 003:264.303 JLINK_SetBPEx(Addr = 0x20000000, Type = 0xFFFFFFF2)
T12A4 003:264.310 - 0.006ms returns 0x0000000B
T12A4 003:264.316 JLINK_Go()
T12A4 003:264.324   CPU_WriteMem(4 bytes @ 0xE0002000)
T12A4 003:264.611   CPU_ReadMem(4 bytes @ 0xE0001000)
T12A4 003:267.116 - 2.799ms
T12A4 003:267.136 JLINK_IsHalted()
T12A4 003:267.396 - 0.260ms returns FALSE
T12A4 003:267.422 JLINK_HasError()
T12A4 003:270.495 JLINK_IsHalted()
T12A4 003:273.032 - 2.537ms returns TRUE
T12A4 003:273.047 JLINK_ReadReg(R15 (PC))
T12A4 003:273.057   CPU_ReadMem(4 bytes @ 0xE000EE08)
T12A4 003:273.323 - 0.276ms returns 0x20000000
T12A4 003:273.342 JLINK_ClrBPEx(BPHandle = 0x0000000B)
T12A4 003:273.351 - 0.009ms returns 0x00
T12A4 003:273.360 JLINK_ReadReg(R0)
T12A4 003:273.369 - 0.008ms returns 0x00000000
T12A4 003:274.068 JLINK_WriteMem(0x20000668, 0x80 Bytes, ...)
T12A4 003:274.082   Data:  54 48 00 47 54 48 00 47 54 48 00 47 54 48 00 47 ...
T12A4 003:274.111   CPU_WriteMem(128 bytes @ 0x20000668)
T12A4 003:274.862 - 0.793ms returns 0x80
T12A4 003:274.883 JLINK_HasError()
T12A4 003:274.892 JLINK_WriteReg(R0, 0x00000300)
T12A4 003:274.902 - 0.010ms returns 0
T12A4 003:274.910 JLINK_WriteReg(R1, 0x00000080)
T12A4 003:274.918 - 0.007ms returns 0
T12A4 003:274.926 JLINK_WriteReg(R2, 0x20000668)
T12A4 003:274.934 - 0.007ms returns 0
T12A4 003:274.942 JLINK_WriteReg(R3, 0x00000000)
T12A4 003:274.950 - 0.007ms returns 0
T12A4 003:274.958 JLINK_WriteReg(R4, 0x00000000)
T12A4 003:274.965 - 0.007ms returns 0
T12A4 003:274.973 JLINK_WriteReg(R5, 0x00000000)
T12A4 003:274.981 - 0.007ms returns 0
T12A4 003:274.989 JLINK_WriteReg(R6, 0x00000000)
T12A4 003:274.996 - 0.007ms returns 0
T12A4 003:275.004 JLINK_WriteReg(R7, 0x00000000)
T12A4 003:275.012 - 0.007ms returns 0
T12A4 003:275.020 JLINK_WriteReg(R8, 0x00000000)
T12A4 003:275.027 - 0.007ms returns 0
T12A4 003:275.035 JLINK_WriteReg(R9, 0x20000638)
T12A4 003:275.043 - 0.007ms returns 0
T12A4 003:275.051 JLINK_WriteReg(R10, 0x00000000)
T12A4 003:275.059 - 0.007ms returns 0
T12A4 003:275.067 JLINK_WriteReg(R11, 0x00000000)
T12A4 003:275.074 - 0.007ms returns 0
T12A4 003:275.082 JLINK_WriteReg(R12, 0x00000000)
T12A4 003:275.090 - 0.007ms returns 0
T12A4 003:275.098 JLINK_WriteReg(R13 (SP), 0x20001000)
T12A4 003:275.106 - 0.008ms returns 0
T12A4 003:275.114 JLINK_WriteReg(R14, 0x20000001)
T12A4 003:275.122 - 0.007ms returns 0
T12A4 003:275.130 JLINK_WriteReg(R15 (PC), 0x20000284)
T12A4 003:275.137 - 0.007ms returns 0
T12A4 003:275.146 JLINK_WriteReg(XPSR, 0x01000000)
T12A4 003:275.153 - 0.007ms returns 0
T12A4 003:275.176 JLINK_WriteReg(MSP, 0x20001000)
T12A4 003:275.183 - 0.007ms returns 0
T12A4 003:275.191 JLINK_WriteReg(PSP, 0x20001000)
T12A4 003:275.199 - 0.007ms returns 0
T12A4 003:275.207 JLINK_WriteReg(CFBP, 0x00000000)
T12A4 003:275.215 - 0.007ms returns 0
T12A4 003:275.223 JLINK_SetBPEx(Addr = 0x20000000, Type = 0xFFFFFFF2)
T12A4 003:275.231 - 0.008ms returns 0x0000000C
T12A4 003:275.239 JLINK_Go()
T12A4 003:275.248   CPU_WriteMem(4 bytes @ 0xE0002000)
T12A4 003:275.548   CPU_ReadMem(4 bytes @ 0xE0001000)
T12A4 003:278.047 - 2.806ms
T12A4 003:278.066 JLINK_IsHalted()
T12A4 003:278.318 - 0.252ms returns FALSE
T12A4 003:278.327 JLINK_HasError()
T12A4 003:279.501 JLINK_IsHalted()
T12A4 003:282.017 - 2.515ms returns TRUE
T12A4 003:282.034 JLINK_ReadReg(R15 (PC))
T12A4 003:282.046   CPU_ReadMem(4 bytes @ 0xE000EE08)
T12A4 003:282.310 - 0.275ms returns 0x20000000
T12A4 003:282.322 JLINK_ClrBPEx(BPHandle = 0x0000000C)
T12A4 003:282.330 - 0.008ms returns 0x00
T12A4 003:282.338 JLINK_ReadReg(R0)
T12A4 003:282.346 - 0.008ms returns 0x00000000
T12A4 003:283.026 JLINK_WriteMem(0x20000668, 0x80 Bytes, ...)
T12A4 003:283.039   Data:  54 48 00 47 54 48 00 47 54 48 00 47 54 48 00 47 ...
T12A4 003:283.056   CPU_WriteMem(128 bytes @ 0x20000668)
T12A4 003:283.804 - 0.778ms returns 0x80
T12A4 003:283.823 JLINK_HasError()
T12A4 003:283.832 JLINK_WriteReg(R0, 0x00000380)
T12A4 003:283.842 - 0.010ms returns 0
T12A4 003:283.903 JLINK_WriteReg(R1, 0x00000080)
T12A4 003:283.915 - 0.011ms returns 0
T12A4 003:283.923 JLINK_WriteReg(R2, 0x20000668)
T12A4 003:283.931 - 0.007ms returns 0
T12A4 003:283.939 JLINK_WriteReg(R3, 0x00000000)
T12A4 003:283.947 - 0.007ms returns 0
T12A4 003:283.955 JLINK_WriteReg(R4, 0x00000000)
T12A4 003:283.962 - 0.007ms returns 0
T12A4 003:283.970 JLINK_WriteReg(R5, 0x00000000)
T12A4 003:283.978 - 0.007ms returns 0
T12A4 003:283.986 JLINK_WriteReg(R6, 0x00000000)
T12A4 003:283.993 - 0.007ms returns 0
T12A4 003:284.001 JLINK_WriteReg(R7, 0x00000000)
T12A4 003:284.009 - 0.007ms returns 0
T12A4 003:284.017 JLINK_WriteReg(R8, 0x00000000)
T12A4 003:284.024 - 0.007ms returns 0
T12A4 003:284.032 JLINK_WriteReg(R9, 0x20000638)
T12A4 003:284.040 - 0.007ms returns 0
T12A4 003:284.048 JLINK_WriteReg(R10, 0x00000000)
T12A4 003:284.055 - 0.007ms returns 0
T12A4 003:284.063 JLINK_WriteReg(R11, 0x00000000)
T12A4 003:284.071 - 0.007ms returns 0
T12A4 003:284.079 JLINK_WriteReg(R12, 0x00000000)
T12A4 003:284.086 - 0.007ms returns 0
T12A4 003:284.094 JLINK_WriteReg(R13 (SP), 0x20001000)
T12A4 003:284.111 - 0.016ms returns 0
T12A4 003:284.119 JLINK_WriteReg(R14, 0x20000001)
T12A4 003:284.127 - 0.007ms returns 0
T12A4 003:284.135 JLINK_WriteReg(R15 (PC), 0x20000284)
T12A4 003:284.142 - 0.007ms returns 0
T12A4 003:284.150 JLINK_WriteReg(XPSR, 0x01000000)
T12A4 003:284.158 - 0.007ms returns 0
T12A4 003:284.164 JLINK_WriteReg(MSP, 0x20001000)
T12A4 003:284.170 - 0.006ms returns 0
T12A4 003:284.177 JLINK_WriteReg(PSP, 0x20001000)
T12A4 003:284.183 - 0.006ms returns 0
T12A4 003:284.189 JLINK_WriteReg(CFBP, 0x00000000)
T12A4 003:284.195 - 0.006ms returns 0
T12A4 003:284.202 JLINK_SetBPEx(Addr = 0x20000000, Type = 0xFFFFFFF2)
T12A4 003:284.208 - 0.006ms returns 0x0000000D
T12A4 003:284.215 JLINK_Go()
